!Updated comment about this channel
!!
!! === VNA_METADATA_START ===
!! instrument_manufacturer = "Keysight"
!! instrument_model = "N5232A"
!! if_bandwidth_hz = 10000
!! num_averages = 1
!! source_power_dbm = 0.0
!! reference_impedance = 50.0
!! velocity_factor = 0.7
!! === VNA_METADATA_END ===
! Created with skrf 1.8.0 (http://scikit-rf.org).
# GHz S RI R 50.0 
!freq ReS11 ImS11 ReS21 ImS21 ReS12 ImS12 ReS22 ImS22
0.1 0.0 0.0 0.9942281118220595 -0.10457045970073262 0.9942281118220595 -0.10457045970073262 0.0 0.0
0.1995 0.0 0.0 0.9779448069868995 -0.20748126148314278 0.9779448069868995 -0.20748126148314278 0.0 0.0
0.299 0.0 0.0 0.9510390362928771 -0.3081383955731513 0.9510390362928771 -0.3081383955731513 0.0 0.0
0.3985 0.0 0.0 0.9138030510291877 -0.40544852115777674 0.9138030510291877 -0.40544852115777674 0.0 0.0
0.498 0.0 0.0 0.866641309585874 -0.49835465273092566 0.866641309585874 -0.49835465273092566 0.0 0.0
0.5975 0.0 0.0 0.8100660842146489 -0.5858476411016995 0.8100660842146489 -0.5858476411016995 0.0 0.0
0.697 0.0 0.0 0.7446918967123147 -0.666977134803207 0.7446918967123147 -0.666977134803207 0.0 0.0
0.7965 0.0 0.0 0.6712288434665546 -0.7408619028387353 0.6712288434665546 -0.7408619028387353 0.0 0.0
0.896 0.0 0.0 0.5904748823676452 -0.8066994066392982 0.5904748823676452 -0.8066994066392982 0.0 0.0
0.9955 0.0 0.0 0.5033071653658938 -0.8637745172616688 0.5033071653658938 -0.8637745172616688 0.0 0.0
1.095 0.0 0.0 0.4106725108208139 -0.9114672831404366 0.4106725108208139 -0.9114672831404366 0.0 0.0
1.1945 0.0 0.0 0.3135771191316735 -0.9492596640205253 0.3135771191316735 -0.9492596640205253 0.0 0.0
1.294 0.0 0.0 0.21307564335854545 -0.9767411579259994 0.21307564335854545 -0.9767411579259994 0.0 0.0
1.3935 0.0 0.0 0.1102597335490991 -0.9936132600448536 0.1102597335490991 -0.9936132600448536 0.0 0.0
1.493 0.0 0.0 0.006246179203003299 -0.9996927050972435 0.006246179203003299 -0.9996927050972435 0.0 0.0
1.5925 0.0 0.0 -0.09783522132915352 -0.9949134579684586 -0.09783522132915352 -0.9949134579684586 0.0 0.0
1.692 0.0 0.0 -0.20085393274947289 -0.9793274309843212 -0.20085393274947289 -0.9793274309843212 0.0 0.0
1.7915 0.0 0.0 -0.3016909627210983 -0.9531039200379449 -0.3016909627210983 -0.9531039200379449 0.0 0.0
1.891 0.0 0.0 -0.3992510163965812 -0.9165277656926586 -0.3992510163965812 -0.9165277656926586 0.0 0.0
1.9905 0.0 0.0 -0.4924743935434001 -0.869996259235257 -0.4924743935434001 -0.869996259235257 0.0 0.0
2.09 0.0 0.0 -0.5803484990397088 -0.8140148272861112 -0.5803484990397088 -0.8140148272861112 0.0 0.0
2.1895 0.0 0.0 -0.6619188417129549 -0.7491915418400427 -0.6619188417129549 -0.7491915418400427 0.0 0.0
2.289 0.0 0.0 -0.7362994020516571 -0.6762305153700566 -0.7362994020516571 -0.6762305153700566 0.0 0.0
2.3885 0.0 0.0 -0.8026822561759435 -0.595924252736518 -0.8026822561759435 -0.595924252736518 0.0 0.0
2.488 0.0 0.0 -0.8603463515309966 -0.5091450429755583 -0.8603463515309966 -0.5091450429755583 0.0 0.0
2.5875 0.0 0.0 -0.9086653389815531 -0.416835484469376 -0.9086653389815531 -0.416835484469376 0.0 0.0
2.687 0.0 0.0 -0.9471143762350199 -0.31999824641430386 -0.9471143762350199 -0.31999824641430386 0.0 0.0
2.7865 0.0 0.0 -0.9752758286942164 -0.21968517779788815 -0.9752758286942164 -0.21968517779788815 0.0 0.0
2.886 0.0 0.0 -0.9928438058169089 -0.11698588218360535 -0.9928438058169089 -0.11698588218360535 0.0 0.0
2.9855 0.0 0.0 -0.9996274837080659 -0.013015882404235162 -0.9996274837080659 -0.013015882404235162 0.0 0.0
3.085 0.0 0.0 -0.9955531778547357 0.09109549628064645 -0.9955531778547357 0.09109549628064645 0.0 0.0
3.1845 0.0 0.0 -0.9806651434894391 0.19421739294954526 -0.9806651434894391 0.19421739294954526 0.0 0.0
3.284 0.0 0.0 -0.9551250948885046 0.2952296944643361 -0.9551250948885046 0.2952296944643361 0.0 0.0
3.3835 0.0 0.0 -0.9192104488267425 0.39303520217280646 -0.9192104488267425 0.39303520217280646 0.0 0.0
3.483 0.0 0.0 -0.8733113112681079 0.4865715497133575 -0.8733113112681079 0.4865715497133575 0.0 0.0
3.5825 0.0 0.0 -0.8179262400230047 0.574822742470329 -0.8179262400230047 0.574822742470329 0.0 0.0
3.682 0.0 0.0 -0.7536568293983804 0.65683019333802 -0.7536568293983804 0.65683019333802 0.0 0.0
3.7815 0.0 0.0 -0.6812011756622981 0.7317031349226153 -0.6812011756622981 0.7317031349226153 0.0 0.0
3.881 0.0 0.0 -0.6013462943013115 0.7986282950843657 -0.6013462943013115 0.7986282950843657 0.0 0.0
3.9805 0.0 0.0 -0.514959571434616 0.8568787307239903 -0.514959571434616 0.8568787307239903 0.0 0.0
4.08 0.0 0.0 -0.4229793422399792 0.9058217238604486 -0.4229793422399792 0.9058217238604486 0.0 0.0
4.1795 0.0 0.0 -0.32640469872886213 0.9449256542326496 -0.32640469872886213 0.9449256542326496 0.0 0.0
4.279 0.0 0.0 -0.2262846375789916 0.973765773774692 -0.2262846375789916 0.973765773774692 0.0 0.0
4.3785 0.0 0.0 -0.12370666590094448 0.9920288202421099 -0.12370666590094448 0.9920288202421099 0.0 0.0
4.478 0.0 0.0 -0.01978498870326258 0.9995164198757777 -0.01978498870326258 0.9995164198757777 0.0 0.0
4.5775 0.0 0.0 0.08435159363581059 0.9961472421436398 0.08435159363581059 0.9961472421436398 0.0 0.0
4.677 0.0 0.0 0.18757194643193176 0.9819578831553911 0.18757194643193176 0.9819578831553911 0.0 0.0
4.7765 0.0 0.0 0.28875488711356806 0.9571024681544347 0.28875488711356806 0.9571024681544347 0.0 0.0
4.876 0.0 0.0 0.38680136354075023 0.9218509774048604 0.38680136354075023 0.9218509774048604 0.0 0.0
4.9755 0.0 0.0 0.4806463919424222 0.8765863136577092 0.4806463919424222 0.8765863136577092 0.0 0.0
5.075 0.0 0.0 0.5692706248021407 0.8218001430497932 0.5692706248021407 0.8218001430497932 0.0 0.0
5.1745 0.0 0.0 0.6517114230414074 0.7580875546113548 0.6517114230414074 0.7580875546113548 0.0 0.0
5.274 0.0 0.0 0.7270733122342444 0.6861405963911515 0.7270733122342444 0.6861405963911515 0.0 0.0
5.3735 0.0 0.0 0.7945377092773009 0.606740758409767 0.7945377092773009 0.606740758409767 0.0 0.0
5.473 0.0 0.0 0.8533718138640985 0.520750484091545 0.8533718138640985 0.520750484091545 0.0 0.0
5.5725 0.0 0.0 0.9029365681839662 0.4291038023782148 0.9029365681839662 0.4291038023782148 0.0 0.0
5.672 0.0 0.0 0.942693598387169 0.3327961822784797 0.942693598387169 0.3327961822784797 0.0 0.0
5.7715 0.0 0.0 0.9722110624178302 0.2328737200537539 0.9722110624178302 0.2328737200537539 0.0 0.0
5.871 0.0 0.0 0.9911683406953093 0.1304217764891562 0.9911683406953093 0.1304217764891562 0.0 0.0
5.9705 0.0 0.0 0.999359518693714 0.026553187672076532 0.999359518693714 0.026553187672076532 0.0 0.0
6.07 0.0 0.0 0.996695623591664 -0.07760382266682755 0.996695623591664 -0.07760382266682755 0.0 0.0
6.1695 0.0 0.0 0.9832055906977479 -0.18091789795366522 0.9832055906977479 -0.18091789795366522 0.0 0.0
6.269 0.0 0.0 0.9590359491543335 -0.2822668376003934 0.9590359491543335 -0.2822668376003934 0.0 0.0
6.3685 0.0 0.0 0.9244492303336225 -0.3805497863813003 0.9244492303336225 -0.3805497863813003 0.0 0.0
6.468 0.0 0.0 0.8798211162140027 -0.4746991919555231 0.8798211162140027 -0.4746991919555231 0.0 0.0
6.5675 0.0 0.0 0.8256363587111183 -0.5636924006526306 0.8256363587111183 -0.5636924006526306 0.0 0.0
6.667 0.0 0.0 0.7624835142880059 -0.646562765567499 0.7624835142880059 -0.646562765567499 0.0 0.0
6.7665 0.0 0.0 0.6910485510371197 -0.7224101463080219 0.6910485510371197 -0.7224101463080219 0.0 0.0
6.866 0.0 0.0 0.6121073976743154 -0.7904106863470772 0.6121073976743154 -0.7904106863470772 0.0 0.0
6.9655 0.0 0.0 0.5265175153778336 -0.8498257617768674 0.5265175153778336 -0.8498257617768674 0.0 0.0
7.065 0.0 0.0 0.4352085840192414 -0.9000100042639788 0.4352085840192414 -0.9000100042639788 0.0 0.0
7.1645 0.0 0.0 0.3391724039527473 -0.9404183110596022 0.3391724039527473 -0.9404183110596022 0.0 0.0
7.264 0.0 0.0 0.23945212304997301 -0.9706117659219575 0.23945212304997301 -0.9706117659219575 0.0 0.0
7.3635 0.0 0.0 0.13713090599644875 -0.9902624066376918 0.13713090599644875 -0.9902624066376918 0.0 0.0
7.463 0.0 0.0 0.033320168924274175 -0.9991567873572886 0.033320168924274175 -0.9991567873572886 0.0 0.0
7.5625 0.0 0.0 -0.07085249282328179 -0.9971982970502943 -0.07085249282328179 -0.9971982970502943 0.0 0.0
7.662 0.0 0.0 -0.1742555526662584 -0.9844082088972324 -0.1742555526662584 -0.9844082088972324 0.0 0.0
7.7615 0.0 0.0 -0.2757658434636918 -0.9609254492196774 -0.2757658434636918 -0.9609254492196774 0.0 0.0
7.861 0.0 0.0 -0.37428075738882466 -0.9270050884583795 -0.37428075738882466 -0.9270050884583795 0.0 0.0
7.9605 0.0 0.0 -0.4687302224884355 -0.8830155705904749 -0.4687302224884355 -0.8830155705904749 0.0 0.0
8.06 0.0 0.0 -0.5580883258365165 -0.8294347110799466 -0.5580883258365165 -0.8294347110799466 0.0 0.0
8.1595 0.0 0.0 -0.6413844570312882 -0.7668445068317044 -0.6413844570312882 -0.7668445068317044 0.0 0.0
8.259 0.0 0.0 -0.7177138509945271 -0.6959248145237286 -0.7177138509945271 -0.6959248145237286 0.0 0.0
8.3585 0.0 0.0 -0.7862474155570133 -0.617445965983419 -0.7862474155570133 -0.617445965983419 0.0 0.0
8.458 0.0 0.0 -0.8462407370825681 -0.532260400820155 -0.8462407370825681 -0.532260400820155 0.0 0.0
8.5575 0.0 0.0 -0.8970421663113234 -0.44129340720066096 -0.8970421663113234 -0.44129340720066096 0.0 0.0
8.657 0.0 0.0 -0.9380998965935494 -0.3455330713411556 -0.9380998965935494 -0.3455330713411556 0.0 0.0
8.7565 0.0 0.0 -0.9689679576300543 -0.2460195448852013 -0.9689679576300543 -0.2460195448852013 0.0 0.0
8.856 0.0 0.0 -0.9893110596149645 -0.14383374674531865 -0.9893110596149645 -0.14383374674531865 0.0 0.0
8.9555 0.0 0.0 -0.9989082351636647 -0.040085622129301 -0.9989082351636647 -0.040085622129301 0.0 0.0
9.055 0.0 0.0 -0.9976552394671643 0.0640979137179616 -0.9976552394671643 0.0640979137179616 0.0 0.0
9.1545 0.0 0.0 -0.9855656826023435 0.16758521610171087 -0.9855656826023435 0.16758521610171087 0.0 0.0
9.254 0.0 0.0 -0.9627708816988888 0.2692522028359738 -0.9627708816988888 0.2692522028359738 0.0 0.0
9.3535 0.0 0.0 -0.9295184345686872 0.36799456405802705 -0.9295184345686872 0.36799456405802705 0.0 0.0
9.453 0.0 0.0 -0.8861695302909594 0.4627397572752753 -0.8861695302909594 0.4627397572752753 0.0 0.0
9.5525 0.0 0.0 -0.8331950259656352 0.5524586573540184 -0.8331950259656352 0.5524586573540184 0.0 0.0
9.652 0.0 0.0 -0.7711703322493955 0.6361767349075549 -0.7711703322493955 0.6361767349075549 0.0 0.0
9.7515 0.0 0.0 -0.7007691632278408 0.7129846416636422 -0.7007691632278408 0.7129846416636422 0.0 0.0
9.851 0.0 0.0 -0.6227562185128654 0.7820480878327345 -0.6227562185128654 0.7820480878327345 0.0 0.0
9.9505 0.0 0.0 -0.537978877052505 0.8426169041887338 -0.537978877052505 0.8426169041887338 0.0 0.0
10.05 0.0 0.0 -0.4473579928753666 0.8940331904296416 -0.4473579928753666 0.8940331904296416 0.0 0.0
10.1495 0.0 0.0 -0.351877892746513 0.9357384613103994 -0.351877892746513 0.9357384613103994 0.0 0.0
10.249 0.0 0.0 -0.2525756843805855 0.9672797129263898 -0.2525756843805855 0.9672797129263898 0.0 0.0
10.3485 0.0 0.0 -0.1505299913466654 0.9883143432554509 -0.1505299913466654 0.9883143432554509 0.0 0.0
10.448 0.0 0.0 -0.04684923702667806 0.9986138735113279 -0.04684923702667806 0.9986138735113279 0.0 0.0
10.5475 0.0 0.0 0.05734039511266312 0.9980664298871113 0.05734039511266312 0.9980664298871113 0.0 0.0
10.647 0.0 0.0 0.16090719415849578 0.9866779587318856 0.16090719415849578 0.9866779587318856 0.0 0.0
10.7465 0.0 0.0 0.2627262144297163 0.9645721619613076 0.2627262144297163 0.9645721619613076 0.0 0.0
10.846 0.0 0.0 0.36169149467075407 0.9319891534036843 0.36169149467075407 0.9319891534036843 0.0 0.0
10.9455 0.0 0.0 0.4567280710359376 0.8892828506763591 0.4567280710359376 0.8892828506763591 0.0 0.0
11.045 0.0 0.0 0.5468036533790646 0.8369171309219259 0.5468036533790646 0.8369171309219259 0.0 0.0
11.1445 0.0 0.0 0.6309398380199672 0.7754607921607757 0.6309398380199672 0.7754607921607757 0.0 0.0
11.244 0.0 0.0 0.7082227351946652 0.7055813749899209 0.7082227351946652 0.7055813749899209 0.0 0.0
11.3435 0.0 0.0 0.7778128957534243 0.628037911736985 0.7778128957534243 0.628037911736985 0.0 0.0
11.443 0.0 0.0 0.8389544292826273 0.5436726818282682 0.8389544292826273 0.5436726818282682 0.0 0.0
11.5425 0.0 0.0 0.8909832146091443 0.4534020629243274 0.8909832146091443 0.4534020629243274 0.0 0.0
11.642 0.0 0.0 0.9333341135044573 0.3582065771983105 0.9333341135044573 0.3582065771983105 0.0 0.0
11.7415 0.0 0.0 0.9655471092330679 0.25912024087466895 0.9655471092330679 0.25912024087466895 0.0 0.0
11.841 0.0 0.0 0.9872723032680915 0.15721933271388022 0.9872723032680915 0.15721933271388022 0.0 0.0
11.9405 0.0 0.0 0.9982737158995645 0.05361070344022494 0.9982737158995645 0.05361070344022494 0.0 0.0
12.04 0.0 0.0 0.9984318494531367 -0.0505802469039972 0.9984318494531367 -0.0505802469039972 0.0 0.0
12.1395 0.0 0.0 0.9877449862774006 -0.1542217930875464 0.9877449862774006 -0.1542217930875464 0.0 0.0
12.239 0.0 0.0 0.9663292074010731 -0.2561881775236594 0.9663292074010731 -0.2561881775236594 0.0 0.0
12.3385 0.0 0.0 0.9344171316573734 -0.35537183828278673 0.9344171316573734 -0.35537183828278673 0.0 0.0
12.438 0.0 0.0 0.8923553889712739 -0.45069543946351037 0.8923553889712739 -0.45069543946351037 0.0 0.0
12.5375 0.0 0.0 0.8406008552548457 -0.5411235732474627 0.8406008552548457 -0.5411235732474627 0.0 0.0
12.637 0.0 0.0 0.7797156898073829 -0.6256740065301397 0.7797156898073829 -0.6256740065301397 0.0 0.0
12.7365 0.0 0.0 0.7103612291242136 -0.7034283499663749 0.7103612291242136 -0.7034283499663749 0.0 0.0
12.836 0.0 0.0 0.6332908034398287 -0.773542033542985 0.6332908034398287 -0.773542033542985 0.0 0.0
12.9355 0.0 0.0 0.5493415540322577 -0.8352534803236107 0.5493415540322577 -0.8352534803236107 0.0 0.0
13.035 0.0 0.0 0.45942534016935427 -0.8878923787202778 0.45942534016935427 -0.8878923787202778 0.0 0.0
13.1345 0.0 0.0 0.36451883446608074 -0.9308869634379731 0.36451883446608074 -0.9308869634379731 0.0 0.0
13.234 0.0 0.0 0.2656529142371913 -0.9637702260064728 0.2656529142371913 -0.9637702260064728 0.0 0.0
13.3335 0.0 0.0 0.16390146407693523 -0.986184987440347 0.16390146407693523 -0.986184987440347 0.0 0.0
13.433 0.0 0.0 0.06036971129229506 -0.9978877779278416 0.06036971129229506 -0.9978877779278416 0.0 0.0
13.5325 0.0 0.0 -0.043817779109154666 -0.9987514814072725 -0.043817779109154666 -0.9987514814072725 0.0 0.0
13.632 0.0 0.0 -0.14752931947818 -0.9887667163055122 -0.14752931947818 -0.9887667163055122 0.0 0.0
13.7315 0.0 0.0 -0.2496383919490766 -0.9680419374409145 -0.2496383919490766 -0.9680419374409145 0.0 0.0
13.831 0.0 0.0 -0.3490358847105716 -0.9368022579838228 -0.3490358847105716 -0.9368022579838228 0.0 0.0
13.9305 0.0 0.0 -0.444642139211618 -0.8953870042705536 -0.444642139211618 -0.8953870042705536 0.0 0.0
14.03 0.0 0.0 -0.5354186774449955 -0.8442460300305428 -0.5354186774449955 -0.8442460300305428 0.0 0.0
14.1295 0.0 0.0 -0.6203794819266084 -0.7839348300616278 -0.6203794819266084 -0.7839348300616278 0.0 0.0
14.229 0.0 0.0 -0.6986017058470052 -0.7151085064288737 -0.6986017058470052 -0.7151085064288737 0.0 0.0
14.3285 0.0 0.0 -0.7692356970611343 -0.6385146527262715 -0.7692356970611343 -0.6385146527262715 0.0 0.0
14.428 0.0 0.0 -0.8315142270354559 -0.5549852336926709 -0.8315142270354559 -0.5549852336926709 0.0 0.0
14.5275 0.0 0.0 -0.8847608245073119 -0.46542754838580613 -0.8847608245073119 -0.46542754838580613 0.0 0.0
14.627 0.0 0.0 -0.9283971233360936 -0.3708143750726857 -0.9283971233360936 -0.3708143750726857 0.0 0.0
14.7265 0.0 0.0 -0.9619491447336278 -0.27217340488284675 -0.9619491447336278 -0.27217340488284675 0.0 0.0
14.826 0.0 0.0 -0.9850524456360068 -0.17057607899644642 -0.9850524456360068 -0.17057607899644642 0.0 0.0
14.9255 0.0 0.0 -0.9974560772950912 -0.06712595061799204 -0.9974560772950912 -0.06712595061799204 0.0 0.0
15.025 0.0 0.0 -0.9990253110913488 0.03705330185171031 -0.9990253110913488 0.03705330185171031 0.0 0.0
15.1245 0.0 0.0 -0.9897431019601638 0.1408300802440763 -0.9897431019601638 0.1408300802440763 0.0 0.0
15.224 0.0 0.0 -0.969710273535842 0.2430771580760368 -0.969710273535842 0.2430771580760368 0.0 0.0
15.3235 0.0 0.0 -0.939144423002267 0.342683924517943 -0.939144423002267 0.342683924517943 0.0 0.0
15.423 0.0 0.0 -0.8983775575457545 0.4385684478817472 -0.8983775575457545 0.4385684478817472 0.0 0.0
15.5225 0.0 0.0 -0.8478524880830258 0.5296892275954862 -0.8478524880830258 0.5296892275954862 0.0 0.0
15.622 0.0 0.0 -0.7881180194357337 0.6150565070137677 -0.7881180194357337 0.6150565070137677 0.0 0.0
15.7215 0.0 0.0 -0.7198229891960095 0.6937430241841729 -0.7198229891960095 0.6937430241841729 0.0 0.0
15.821 0.0 0.0 -0.6437092200330556 0.7648940837944267 -0.6437092200330556 0.7648940837944267 0.0 0.0
15.9205 0.0 0.0 -0.5606034619930368 0.8277368408985443 -0.5606034619930368 0.8277368408985443 0.0 0.0
16.02 0.0 0.0 -0.471408412315256 0.8815886955818397 -0.471408412315256 0.8815886955818397 0.0 0.0
16.1195 0.0 0.0 -0.3770929103076205 0.9258647073817045 -0.3770929103076205 0.9258647073817045 0.0 0.0
16.219 0.0 0.0 -0.27868141378502165 0.9600839489284579 -0.27868141378502165 0.9600839489284579 0.0 0.0
16.3185 0.0 0.0 -0.17724287137773903 0.9838747297929012 -0.17724287137773903 0.9838747297929012 0.0 0.0
16.418 0.0 0.0 -0.07387911157937394 0.9969786337989007 -0.07387911157937394 0.9969786337989007 0.0 0.0
16.5175 0.0 0.0 0.030287125347388394 0.9992533259476657 0.030287125347388394 0.9992533259476657 0.0 0.0
16.617 0.0 0.0 0.1341243826091696 0.9906740984647723 0.1341243826091696 0.9906740984647723 0.0 0.0
16.7165 0.0 0.0 0.23650477679961882 0.9713341391767525 0.23650477679961882 0.9713341391767525 0.0 0.0
16.816 0.0 0.0 0.3363162490027844 0.9414435193021286 0.3363162490027844 0.9414435193021286 0.0 0.0
16.9155 0.0 0.0 0.43247464401050656 0.9013269116515193 0.43247464401050656 0.9013269116515193 0.0 0.0
17.015 0.0 0.0 0.5239354864487891 0.8514200640218381 0.5239354864487891 0.8514200640218381 0.0 0.0
17.1145 0.0 0.0 0.609705325900724 0.7922650660906184 0.609705325900724 0.7922650660906184 0.0 0.0
17.214 0.0 0.0 0.6888525277947158 0.7245044612216757 0.6888525277947158 0.7245044612216757 0.0 0.0
17.3135 0.0 0.0 0.7605173928471861 0.6488742671397896 0.7605173928471861 0.6488742671397896 0.0 0.0
17.413 0.0 0.0 0.8239214951420156 0.5661959812840653 0.8239214951420156 0.5661959812840653 0.0 0.0
17.5125 0.0 0.0 0.8783761374161939 0.4773676576781127 0.8783761374161939 0.4773676576781127 0.0 0.0
17.612 0.0 0.0 0.923289831710202 0.38335415224023206 0.923289831710202 0.38335415224023206 0.0 0.0
17.7115 0.0 0.0 0.9581747241279603 0.2851766424895055 0.9581747241279603 0.2851766424895055 0.0 0.0
17.811 0.0 0.0 0.9826518939205211 0.18390153548487095 0.9826518939205211 0.18390153548487095 0.0 0.0
17.9105 0.0 0.0 0.9964554693346025 0.08062888447967827 0.9964554693346025 0.08062888447967827 0.0 0.0
18.01 0.0 0.0 0.9994355155195701 -0.02351955988983451 0.9994355155195701 -0.02351955988983451 0.0 0.0
18.1095 0.0 0.0 0.9915596631242785 -0.12741253409358005 0.9915596631242785 -0.12741253409358005 0.0 0.0
18.209 0.0 0.0 0.9729134598939375 -0.22992154952611096 0.9729134598939375 -0.22992154952611096 0.0 0.0
18.3085 0.0 0.0 0.943699441447939 -0.32993315018368186 0.943699441447939 -0.32993315018368186 0.0 0.0
18.408 0.0 0.0 0.9042349313318692 -0.4263610070568485 0.9042349313318692 -0.4263610070568485 0.0 0.0
18.5075 0.0 0.0 0.8549485942396352 -0.5181577178687505 0.8549485942396352 -0.5181577178687505 0.0 0.0
18.607 0.0 0.0 0.7963757798446853 -0.6043261839901111 0.7963757798446853 -0.6043261839901111 0.0 0.0
18.7065 0.0 0.0 0.7291527078157805 -0.6839304409544843 0.7291527078157805 -0.6839304409544843 0.0 0.0
18.806 0.0 0.0 0.6540095571798485 -0.7561058249323956 0.6540095571798485 -0.7561058249323956 0.0 0.0
18.9055 0.0 0.0 0.5717625350954683 -0.820068364735821 0.5717625350954683 -0.820068364735821 0.0 0.0
19.005 0.0 0.0 0.4833050111862039 -0.8751232973367715 0.4833050111862039 -0.8751232973367715 0.0 0.0
19.1045 0.0 0.0 0.38959781373292807 -0.9206726144041664 0.38959781373292807 -0.9206726144041664 0.0 0.0
19.204 0.0 0.0 0.2916587931281838 -0.9562215578882812 0.2916587931281838 -0.9562215578882812 0.0 0.0
